
T1ECC 000:245 SEGGER J-Link V4.54a Log File (0000ms, 0245ms total)
T1ECC 000:245 DLL Compiled: Sep 17 2012 15:58:45 (0000ms, 0245ms total)
T1ECC 000:245 Logging started @ 2015-01-02 15:09 (0000ms, 0245ms total)
T1ECC 000:245 JLINK_SetWarnOutHandler(...) (0000ms, 0245ms total)
T1ECC 000:245 JLINK_OpenEx(...)
Firmware: J-Link ARM V8 compiled Nov 14 2012 22:34:52
Hardware: V8.00
S/N: 99999994
Feature(s): RDI,FlashDL,FlashBP,JFlash,GDBFULL  returns O.K. (0025ms, 0270ms total)
T1ECC 000:270 JLINK_SetErrorOutHandler(...) (0000ms, 0270ms total)
T1ECC 000:270 JLINK_ExecCommand("ProjectFile = "C:\Users\Administrator\Desktop\TWABV v1.0.0\TWABV v1.0.0\User\JLinkSettings.ini"", ...)  returns 0x00 (0000ms, 0270ms total)
T1ECC 000:276 JLINK_ExecCommand("Device = STM32F103RC", ...)
                JLINK_ExecCommand("map ram 0x20000000 - 0x2000BFFF", ...)  returns 0x00 (0000ms, 0000ms total)
                JLINK_AddMirrorAreaEx(Addr = 0x00000000, Size = 0x00000000) (0000ms, 0000ms total)
              Device "STM32F103RC" selected (256 KB flash, 48 KB RAM).  returns 0x00 (0005ms, 0275ms total)
T1ECC 000:281 JLINK_ExecCommand("DisableConnectionTimeout", ...)  returns 0x00 (0000ms, 0275ms total)
T1ECC 000:281 JLINK_TIF_Select(JLINKARM_TIF_SWD)  returns 0x00 (0005ms, 0280ms total)
T1ECC 000:286 JLINK_SetSpeed(2000) (0001ms, 0281ms total)
T1ECC 000:287 JLINK_GetHardwareVersion()  returns 0x13880 (0000ms, 0281ms total)
T1ECC 000:287 JLINK_GetDLLVersion()  returns 45401 (0000ms, 0281ms total)
T1ECC 000:287 JLINK_GetFirmwareString(...) (0000ms, 0281ms total)
T1ECC 000:302 JLINK_GetDLLVersion()  returns 45401 (0000ms, 0281ms total)
T1ECC 000:302 JLINK_GetCompileDateTime() (0000ms, 0281ms total)
T1ECC 000:309 JLINK_GetFirmwareString(...) (0000ms, 0281ms total)
T1ECC 000:313 JLINK_GetHardwareVersion()  returns 0x13880 (0000ms, 0281ms total)
T1ECC 000:325 JLINK_GetId() >0x108 TIF>Found SWD-DP with ID 0x1BA01477 >0x0D TIF> >0x28 TIF> >0x0D TIF> >0x28 TIF> >0x0D TIF> >0x21 TIF> >0x0D TIF> >0x28 TIF> >0x0D TIF> >0x28 TIF> >0x0D TIF> >0x28 TIF> >0x0D TIF> >0x21 TIF> >0x0D TIF> >0x21 TIF> >0x0D TIF> >0x28 TIF> >0x0D TIF> >0x21 TIF> >0x0D TIF> >0x21 TIF> >0x108 TIF>Found SWD-DP with ID 0x1BA01477 >0x0D TIF> >0x21 TIF> >0x0D TIF> >0x28 TIF> >0x0D TIF> >0x28 TIF> >0x0D TIF> >0x21 TIF> >0x0D TIF> >0x21 TIF> >0x0D TIF> >0x28 TIF> >0x0D TIF> >0x21 TIF>
 >0x0D TIF> >0x21 TIF> >0x0D TIF> >0x21 TIF> >0x0D TIF> >0x21 TIF> >0x0D TIF> >0x21 TIF> >0x0D TIF> >0x28 TIF> >0x0D TIF> >0x28 TIF> >0x0D TIF> >0x21 TIF> >0x0D TIF> >0x21 TIF> >0x0D TIF> >0x28 TIF> >0x0D TIF> >0x21 TIF> >0x0D TIF> >0x21 TIF> >0x0D TIF> >0x28 TIF> >0x0D TIF> >0x28 TIF> >0x0D TIF> >0x28 TIF> >0x0D TIF> >0x21 TIF> >0x0D TIF> >0x21 TIF> >0x0D TIF> >0x28 TIF> >0x0D TIF> >0x28 TIF> >0x0D TIF> >0x28 TIF> >0x0D TIF> >0x21 TIF> >0x0D TIF> >0x21 TIF> >0x0D TIF> >0x21 TIF>TPIU fitted.ETM fitted.
 >0x0D TIF> >0x28 TIF> >0x0D TIF> >0x21 TIF> >0x0D TIF> >0x21 TIF> >0x0D TIF> >0x28 TIF> >0x0D TIF> >0x21 TIF> >0x0D TIF> >0x21 TIF>FPUnit: 6 code (BP) slots and 2 literal slots >0x0D TIF> >0x28 TIF> >0x0D TIF> >0x21 TIF> >0x0D TIF> >0x21 TIF> >0x0D TIF> >0x28 TIF> >0x0D TIF> >0x21 TIF> >0x0D TIF> >0x21 TIF> >0x0D TIF> >0x28 TIF> >0x0D TIF> >0x21 TIF> >0x0D TIF> >0x21 TIF> >0x0D TIF> >0x28 TIF> >0x0D TIF> >0x21 TIF> >0x0D TIF> >0x21 TIF>Found Cortex-M3 r1p1, Little endian. >0x0D TIF> >0x21 TIF>
  returns 0x1BA01477 (0088ms, 0369ms total)
T1ECC 000:413 JLINK_GetDeviceFamily()  returns 3 (0000ms, 0369ms total)
T1ECC 000:420 JLINK_ReadMem (0xE00FFFF0, 0x0010 Bytes, ...) -- CPU is running -- CPU_ReadMem(16 bytes @ 0xE00FFFF0) -- Data:  0D 00 00 00 10 00 00 00 05 00 00 00 B1 00 00 00  returns 0x00 (0001ms, 0370ms total)
T1ECC 000:421 JLINK_ReadMem (0xE00FFFD0, 0x0020 Bytes, ...) -- CPU is running -- CPU_ReadMem(32 bytes @ 0xE00FFFD0) -- Data:  00 00 00 00 00 00 00 00 00 00 00 00 00 00 00 00 ...  returns 0x00 (0002ms, 0372ms total)
T1ECC 000:423 JLINK_ReadMem (0xE00FF000, 0x0018 Bytes, ...) -- CPU is running -- CPU_ReadMem(24 bytes @ 0xE00FF000) -- Data:  03 F0 F0 FF 03 20 F0 FF 03 30 F0 FF 03 10 F0 FF ...  returns 0x00 (0001ms, 0373ms total)
T1ECC 000:424 JLINK_ReadMemU32(0xE000ED00, 0x0001 Items, ...) -- CPU is running -- CPU_ReadMem(4 bytes @ 0xE000ED00) -- Data:  31 C2 1F 41  returns 0x01 (0001ms, 0374ms total)
T1ECC 000:425 JLINK_SetResetType(JLINKARM_RESET_TYPE_NORMAL)  returns JLINKARM_RESET_TYPE_NORMAL (0000ms, 0374ms total)
T1ECC 000:425 JLINK_Reset() -- CPU is running -- CPU_WriteMem(4 bytes @ 0xE000EDF0) -- CPU is running -- CPU_WriteMem(4 bytes @ 0xE000EDFC) >0x35 TIF> -- CPU is running -- CPU_WriteMem(4 bytes @ 0xE000ED0C) -- CPU is running -- CPU_ReadMem(4 bytes @ 0xE000EDF0) -- CPU is running -- CPU_ReadMem(4 bytes @ 0xE000EDF0) -- CPU is running -- CPU_WriteMem(4 bytes @ 0xE000EDF0) -- CPU is running -- CPU_WriteMem(4 bytes @ 0xE000EDFC) -- CPU is running -- CPU_ReadMem(4 bytes @ 0xE000EDF0)
 -- CPU_WriteMem(4 bytes @ 0xE0002000) (0020ms, 0394ms total)
T1ECC 000:445 JLINK_Halt()  returns 0x00 (0000ms, 0394ms total)
T1ECC 000:445 JLINK_IsHalted()  returns TRUE (0000ms, 0394ms total)
T1ECC 000:445 JLINK_ReadMemU32(0xE000EDF0, 0x0001 Items, ...) -- CPU_ReadMem(4 bytes @ 0xE000EDF0) -- Data:  03 00 03 00  returns 0x01 (0001ms, 0395ms total)
T1ECC 000:446 JLINK_WriteU32(0xE000EDF0, 0xA05F0003) -- CPU_WriteMem(4 bytes @ 0xE000EDF0)  returns 0x00 (0001ms, 0396ms total)
T1ECC 000:447 JLINK_WriteU32(0xE000EDFC, 0x01000000) -- CPU_WriteMem(4 bytes @ 0xE000EDFC)  returns 0x00 (0001ms, 0397ms total)
T1ECC 000:463 JLINK_GetHWStatus(...)  returns 0x00 (0000ms, 0397ms total)
T1ECC 000:473 JLINK_GetNumBPUnits(Type = 0xFFFFFF00)  returns 0x06 (0000ms, 0397ms total)
T1ECC 000:473 JLINK_GetNumBPUnits(Type = 0xF0)  returns 0x2000 (0000ms, 0397ms total)
T1ECC 000:473 JLINK_GetNumWPUnits()  returns 0x04 (0000ms, 0397ms total)
T1ECC 000:482 JLINK_GetSpeed()  returns 0x7D0 (0000ms, 0397ms total)
T1ECC 000:490 JLINK_ReadMemU32(0xE000E004, 0x0001 Items, ...) -- CPU_ReadMem(4 bytes @ 0xE000E004) -- Data:  01 00 00 00  returns 0x01 (0001ms, 0398ms total)
T1ECC 000:491 JLINK_ReadMemU32(0xE000E004, 0x0001 Items, ...) -- CPU_ReadMem(4 bytes @ 0xE000E004) -- Data:  01 00 00 00  returns 0x01 (0001ms, 0399ms total)
T1ECC 000:492 JLINK_WriteMem(0xE0001000, 0x001C Bytes, ...) -- Data:  01 00 00 00 00 00 00 00 00 00 00 00 00 00 00 00 ... -- CPU_WriteMem(28 bytes @ 0xE0001000)  returns 0x1C (0001ms, 0400ms total)
T1ECC 000:493 JLINK_ReadMem (0xE0001000, 0x001C Bytes, ...) -- CPU_ReadMem(28 bytes @ 0xE0001000) -- Data:  01 00 00 40 00 00 00 00 00 00 00 00 00 00 00 00 ...  returns 0x00 (0002ms, 0402ms total)
T1ECC 000:495 JLINK_Halt()  returns 0x00 (0000ms, 0402ms total)
T1ECC 000:495 JLINK_IsHalted()  returns TRUE (0000ms, 0402ms total)
T1ECC 000:498 JLINK_WriteMem(0x20000000, 0x0164 Bytes, ...) -- Data:  00 BE 0A E0 0D 78 2D 06 68 40 08 24 40 00 00 D3 ... -- CPU_WriteMem(356 bytes @ 0x20000000)  returns 0x164 (0005ms, 0407ms total)
T1ECC 000:503 JLINK_WriteReg(R0, 0x08000000)  returns 0x00 (0000ms, 0407ms total)
T1ECC 000:503 JLINK_WriteReg(R1, 0x007A1200)  returns 0x00 (0000ms, 0407ms total)
T1ECC 000:503 JLINK_WriteReg(R2, 0x00000001)  returns 0x00 (0000ms, 0407ms total)
T1ECC 000:503 JLINK_WriteReg(R3, 0x00000000)  returns 0x00 (0000ms, 0407ms total)
T1ECC 000:503 JLINK_WriteReg(R4, 0x00000000)  returns 0x00 (0000ms, 0407ms total)
T1ECC 000:503 JLINK_WriteReg(R5, 0x00000000)  returns 0x00 (0000ms, 0407ms total)
T1ECC 000:503 JLINK_WriteReg(R6, 0x00000000)  returns 0x00 (0000ms, 0407ms total)
T1ECC 000:503 JLINK_WriteReg(R7, 0x00000000)  returns 0x00 (0000ms, 0407ms total)
T1ECC 000:503 JLINK_WriteReg(R8, 0x00000000)  returns 0x00 (0001ms, 0408ms total)
T1ECC 000:504 JLINK_WriteReg(R9, 0x20000160)  returns 0x00 (0000ms, 0408ms total)
T1ECC 000:504 JLINK_WriteReg(R10, 0x00000000)  returns 0x00 (0000ms, 0408ms total)
T1ECC 000:504 JLINK_WriteReg(R11, 0x00000000)  returns 0x00 (0000ms, 0408ms total)
T1ECC 000:504 JLINK_WriteReg(R12, 0x00000000)  returns 0x00 (0000ms, 0408ms total)
T1ECC 000:504 JLINK_WriteReg(R13, 0x20000800)  returns 0x00 (0000ms, 0408ms total)
T1ECC 000:504 JLINK_WriteReg(R14, 0x20000001)  returns 0x00 (0000ms, 0408ms total)
T1ECC 000:504 JLINK_WriteReg(R15, 0x20000038)  returns 0x00 (0000ms, 0408ms total)
T1ECC 000:504 JLINK_WriteReg(XPSR, 0x01000000)  returns 0x00 (0000ms, 0408ms total)
T1ECC 000:504 JLINK_WriteReg(MSP, 0x20000800)  returns 0x00 (0000ms, 0408ms total)
T1ECC 000:504 JLINK_WriteReg(PSP, 0x20000800)  returns 0x00 (0000ms, 0408ms total)
T1ECC 000:504 JLINK_WriteReg(CFBP, 0x00000000)  returns 0x00 (0000ms, 0408ms total)
T1ECC 000:504 JLINK_SetBPEx(Addr = 0x20000000, Type = 0xFFFFFFF2) -- CPU_ReadMem(2 bytes @ 0x20000000)  returns 0x00000001 (0001ms, 0409ms total)
T1ECC 000:505 JLINK_Go() -- CPU_WriteMem(2 bytes @ 0x20000000) -- CPU_WriteMem(4 bytes @ 0xE0002008) -- CPU_WriteMem(4 bytes @ 0xE000200C) -- CPU_WriteMem(4 bytes @ 0xE0002010) -- CPU_WriteMem(4 bytes @ 0xE0002014) -- CPU_WriteMem(4 bytes @ 0xE0002018) -- CPU_WriteMem(4 bytes @ 0xE000201C) (0009ms, 0418ms total)
T1ECC 000:514 JLINK_IsHalted() -- CPU_ReadMem(2 bytes @ 0x20000000)  returns TRUE (0005ms, 0423ms total)
T1ECC 000:519 JLINK_ReadReg(R15)  returns 0x20000000 (0000ms, 0418ms total)
T1ECC 000:519 JLINK_ClrBPEx(BPHandle = 0x00000001)  returns 0x00 (0000ms, 0418ms total)
T1ECC 000:519 JLINK_ReadReg(R0)  returns 0x00000000 (0000ms, 0418ms total)
T1ECC 000:520 JLINK_WriteReg(R0, 0x08000000)  returns 0x00 (0000ms, 0418ms total)
T1ECC 000:520 JLINK_WriteReg(R1, 0x007A1200)  returns 0x00 (0000ms, 0418ms total)
T1ECC 000:520 JLINK_WriteReg(R2, 0x00000001)  returns 0x00 (0000ms, 0418ms total)
T1ECC 000:520 JLINK_WriteReg(R3, 0x00000000)  returns 0x00 (0000ms, 0418ms total)
T1ECC 000:520 JLINK_WriteReg(R4, 0x00000000)  returns 0x00 (0000ms, 0418ms total)
T1ECC 000:520 JLINK_WriteReg(R5, 0x00000000)  returns 0x00 (0000ms, 0418ms total)
T1ECC 000:520 JLINK_WriteReg(R6, 0x00000000)  returns 0x00 (0000ms, 0418ms total)
T1ECC 000:520 JLINK_WriteReg(R7, 0x00000000)  returns 0x00 (0000ms, 0418ms total)
T1ECC 000:520 JLINK_WriteReg(R8, 0x00000000)  returns 0x00 (0000ms, 0418ms total)
T1ECC 000:520 JLINK_WriteReg(R9, 0x20000160)  returns 0x00 (0000ms, 0418ms total)
T1ECC 000:521 JLINK_WriteReg(R10, 0x00000000)  returns 0x00 (0000ms, 0419ms total)
T1ECC 000:521 JLINK_WriteReg(R11, 0x00000000)  returns 0x00 (0000ms, 0419ms total)
T1ECC 000:521 JLINK_WriteReg(R12, 0x00000000)  returns 0x00 (0000ms, 0419ms total)
T1ECC 000:521 JLINK_WriteReg(R13, 0x20000800)  returns 0x00 (0000ms, 0419ms total)
T1ECC 000:521 JLINK_WriteReg(R14, 0x20000001)  returns 0x00 (0000ms, 0419ms total)
T1ECC 000:521 JLINK_WriteReg(R15, 0x2000007C)  returns 0x00 (0000ms, 0419ms total)
T1ECC 000:521 JLINK_WriteReg(XPSR, 0x01000000)  returns 0x00 (0000ms, 0419ms total)
T1ECC 000:521 JLINK_WriteReg(MSP, 0x20000800)  returns 0x00 (0000ms, 0419ms total)
T1ECC 000:521 JLINK_WriteReg(PSP, 0x20000800)  returns 0x00 (0000ms, 0419ms total)
T1ECC 000:521 JLINK_WriteReg(CFBP, 0x00000000)  returns 0x00 (0000ms, 0419ms total)
T1ECC 000:521 JLINK_SetBPEx(Addr = 0x20000000, Type = 0xFFFFFFF2)  returns 0x00000002 (0000ms, 0419ms total)
T1ECC 000:521 JLINK_Go() (0003ms, 0422ms total)
T1ECC 000:524 JLINK_IsHalted()  returns FALSE (0000ms, 0422ms total)
T1ECC 000:574 JLINK_IsHalted() -- CPU_ReadMem(2 bytes @ 0x20000000)  returns TRUE (0005ms, 0427ms total)
T1ECC 000:579 JLINK_ReadReg(R15)  returns 0x20000000 (0000ms, 0422ms total)
T1ECC 000:579 JLINK_ClrBPEx(BPHandle = 0x00000002)  returns 0x00 (0000ms, 0422ms total)
T1ECC 000:579 JLINK_ReadReg(R0)  returns 0x00000000 (0000ms, 0422ms total)
T1ECC 000:630 JLINK_WriteReg(R0, 0x00000001)  returns 0x00 (0000ms, 0422ms total)
T1ECC 000:630 JLINK_WriteReg(R1, 0x007A1200)  returns 0x00 (0000ms, 0422ms total)
T1ECC 000:630 JLINK_WriteReg(R2, 0x00000001)  returns 0x00 (0000ms, 0422ms total)
T1ECC 000:630 JLINK_WriteReg(R3, 0x00000000)  returns 0x00 (0000ms, 0422ms total)
T1ECC 000:630 JLINK_WriteReg(R4, 0x00000000)  returns 0x00 (0000ms, 0422ms total)
T1ECC 000:630 JLINK_WriteReg(R5, 0x00000000)  returns 0x00 (0000ms, 0422ms total)
T1ECC 000:630 JLINK_WriteReg(R6, 0x00000000)  returns 0x00 (0000ms, 0422ms total)
T1ECC 000:630 JLINK_WriteReg(R7, 0x00000000)  returns 0x00 (0000ms, 0422ms total)
T1ECC 000:630 JLINK_WriteReg(R8, 0x00000000)  returns 0x00 (0000ms, 0422ms total)
T1ECC 000:630 JLINK_WriteReg(R9, 0x20000160)  returns 0x00 (0000ms, 0422ms total)
T1ECC 000:630 JLINK_WriteReg(R10, 0x00000000)  returns 0x00 (0000ms, 0422ms total)
T1ECC 000:630 JLINK_WriteReg(R11, 0x00000000)  returns 0x00 (0000ms, 0422ms total)
T1ECC 000:630 JLINK_WriteReg(R12, 0x00000000)  returns 0x00 (0000ms, 0422ms total)
T1ECC 000:630 JLINK_WriteReg(R13, 0x20000800)  returns 0x00 (0000ms, 0422ms total)
T1ECC 000:630 JLINK_WriteReg(R14, 0x20000001)  returns 0x00 (0000ms, 0422ms total)
T1ECC 000:630 JLINK_WriteReg(R15, 0x2000006A)  returns 0x00 (0001ms, 0423ms total)
T1ECC 000:631 JLINK_WriteReg(XPSR, 0x01000000)  returns 0x00 (0000ms, 0423ms total)
T1ECC 000:631 JLINK_WriteReg(MSP, 0x20000800)  returns 0x00 (0000ms, 0423ms total)
T1ECC 000:631 JLINK_WriteReg(PSP, 0x20000800)  returns 0x00 (0000ms, 0423ms total)
T1ECC 000:631 JLINK_WriteReg(CFBP, 0x00000000)  returns 0x00 (0000ms, 0423ms total)
T1ECC 000:631 JLINK_SetBPEx(Addr = 0x20000000, Type = 0xFFFFFFF2)  returns 0x00000003 (0000ms, 0423ms total)
T1ECC 000:631 JLINK_Go() (0002ms, 0425ms total)
T1ECC 000:633 JLINK_IsHalted() -- CPU_ReadMem(2 bytes @ 0x20000000)  returns TRUE (0007ms, 0432ms total)
T1ECC 000:640 JLINK_ReadReg(R15)  returns 0x20000000 (0000ms, 0425ms total)
T1ECC 000:640 JLINK_ClrBPEx(BPHandle = 0x00000003)  returns 0x00 (0000ms, 0425ms total)
T1ECC 000:640 JLINK_ReadReg(R0)  returns 0x00000000 (0000ms, 0425ms total)
T1ECC 000:645 JLINK_WriteMem(0x20000000, 0x0164 Bytes, ...) -- Data:  00 BE 0A E0 0D 78 2D 06 68 40 08 24 40 00 00 D3 ... -- CPU_WriteMem(356 bytes @ 0x20000000)  returns 0x164 (0005ms, 0430ms total)
T1ECC 000:650 JLINK_WriteReg(R0, 0x08000000)  returns 0x00 (0000ms, 0430ms total)
T1ECC 000:650 JLINK_WriteReg(R1, 0x007A1200)  returns 0x00 (0000ms, 0430ms total)
T1ECC 000:650 JLINK_WriteReg(R2, 0x00000002)  returns 0x00 (0000ms, 0430ms total)
T1ECC 000:650 JLINK_WriteReg(R3, 0x00000000)  returns 0x00 (0000ms, 0430ms total)
T1ECC 000:650 JLINK_WriteReg(R4, 0x00000000)  returns 0x00 (0001ms, 0431ms total)
T1ECC 000:651 JLINK_WriteReg(R5, 0x00000000)  returns 0x00 (0000ms, 0431ms total)
T1ECC 000:651 JLINK_WriteReg(R6, 0x00000000)  returns 0x00 (0000ms, 0431ms total)
T1ECC 000:651 JLINK_WriteReg(R7, 0x00000000)  returns 0x00 (0000ms, 0431ms total)
T1ECC 000:651 JLINK_WriteReg(R8, 0x00000000)  returns 0x00 (0000ms, 0431ms total)
T1ECC 000:651 JLINK_WriteReg(R9, 0x20000160)  returns 0x00 (0000ms, 0431ms total)
T1ECC 000:651 JLINK_WriteReg(R10, 0x00000000)  returns 0x00 (0000ms, 0431ms total)
T1ECC 000:651 JLINK_WriteReg(R11, 0x00000000)  returns 0x00 (0000ms, 0431ms total)
T1ECC 000:651 JLINK_WriteReg(R12, 0x00000000)  returns 0x00 (0000ms, 0431ms total)
T1ECC 000:651 JLINK_WriteReg(R13, 0x20000800)  returns 0x00 (0000ms, 0431ms total)
T1ECC 000:651 JLINK_WriteReg(R14, 0x20000001)  returns 0x00 (0001ms, 0432ms total)
T1ECC 000:652 JLINK_WriteReg(R15, 0x20000038)  returns 0x00 (0000ms, 0432ms total)
T1ECC 000:652 JLINK_WriteReg(XPSR, 0x01000000)  returns 0x00 (0000ms, 0432ms total)
T1ECC 000:652 JLINK_WriteReg(MSP, 0x20000800)  returns 0x00 (0000ms, 0432ms total)
T1ECC 000:652 JLINK_WriteReg(PSP, 0x20000800)  returns 0x00 (0000ms, 0432ms total)
T1ECC 000:652 JLINK_WriteReg(CFBP, 0x00000000)  returns 0x00 (0000ms, 0432ms total)
T1ECC 000:652 JLINK_SetBPEx(Addr = 0x20000000, Type = 0xFFFFFFF2) -- CPU_ReadMem(2 bytes @ 0x20000000)  returns 0x00000004 (0001ms, 0433ms total)
T1ECC 000:653 JLINK_Go() -- CPU_WriteMem(2 bytes @ 0x20000000) (0004ms, 0437ms total)
T1ECC 000:657 JLINK_IsHalted() -- CPU_ReadMem(2 bytes @ 0x20000000)  returns TRUE (0005ms, 0442ms total)
T1ECC 000:662 JLINK_ReadReg(R15)  returns 0x20000000 (0000ms, 0437ms total)
T1ECC 000:662 JLINK_ClrBPEx(BPHandle = 0x00000004)  returns 0x00 (0000ms, 0437ms total)
T1ECC 000:662 JLINK_ReadReg(R0)  returns 0x00000000 (0000ms, 0437ms total)
T1ECC 000:663 JLINK_WriteMem(0x20000164, 0x0400 Bytes, ...) -- Data:  58 07 00 20 A5 1E 00 08 FD 1E 00 08 FF 1E 00 08 ... -- CPU_WriteMem(1024 bytes @ 0x20000164)  returns 0x400 (0012ms, 0449ms total)
T1ECC 000:675 JLINK_WriteReg(R0, 0x08000000)  returns 0x00 (0000ms, 0449ms total)
T1ECC 000:675 JLINK_WriteReg(R1, 0x00000400)  returns 0x00 (0000ms, 0449ms total)
T1ECC 000:675 JLINK_WriteReg(R2, 0x20000164)  returns 0x00 (0000ms, 0449ms total)
T1ECC 000:675 JLINK_WriteReg(R3, 0x00000000)  returns 0x00 (0000ms, 0449ms total)
T1ECC 000:675 JLINK_WriteReg(R4, 0x00000000)  returns 0x00 (0000ms, 0449ms total)
T1ECC 000:675 JLINK_WriteReg(R5, 0x00000000)  returns 0x00 (0000ms, 0449ms total)
T1ECC 000:675 JLINK_WriteReg(R6, 0x00000000)  returns 0x00 (0000ms, 0449ms total)
T1ECC 000:675 JLINK_WriteReg(R7, 0x00000000)  returns 0x00 (0000ms, 0449ms total)
T1ECC 000:675 JLINK_WriteReg(R8, 0x00000000)  returns 0x00 (0000ms, 0449ms total)
T1ECC 000:675 JLINK_WriteReg(R9, 0x20000160)  returns 0x00 (0000ms, 0449ms total)
T1ECC 000:675 JLINK_WriteReg(R10, 0x00000000)  returns 0x00 (0000ms, 0449ms total)
T1ECC 000:675 JLINK_WriteReg(R11, 0x00000000)  returns 0x00 (0000ms, 0449ms total)
T1ECC 000:675 JLINK_WriteReg(R12, 0x00000000)  returns 0x00 (0001ms, 0450ms total)
T1ECC 000:676 JLINK_WriteReg(R13, 0x20000800)  returns 0x00 (0000ms, 0450ms total)
T1ECC 000:676 JLINK_WriteReg(R14, 0x20000001)  returns 0x00 (0000ms, 0450ms total)
T1ECC 000:676 JLINK_WriteReg(R15, 0x200000F4)  returns 0x00 (0000ms, 0450ms total)
T1ECC 000:676 JLINK_WriteReg(XPSR, 0x01000000)  returns 0x00 (0000ms, 0450ms total)
T1ECC 000:676 JLINK_WriteReg(MSP, 0x20000800)  returns 0x00 (0000ms, 0450ms total)
T1ECC 000:676 JLINK_WriteReg(PSP, 0x20000800)  returns 0x00 (0000ms, 0450ms total)
T1ECC 000:676 JLINK_WriteReg(CFBP, 0x00000000)  returns 0x00 (0000ms, 0450ms total)
T1ECC 000:676 JLINK_SetBPEx(Addr = 0x20000000, Type = 0xFFFFFFF2)  returns 0x00000005 (0000ms, 0450ms total)
T1ECC 000:676 JLINK_Go() (0003ms, 0453ms total)
T1ECC 000:679 JLINK_IsHalted()  returns FALSE (0001ms, 0454ms total)
T1ECC 000:730 JLINK_IsHalted() -- CPU_ReadMem(2 bytes @ 0x20000000)  returns TRUE (0005ms, 0458ms total)
T1ECC 000:735 JLINK_ReadReg(R15)  returns 0x20000000 (0000ms, 0453ms total)
T1ECC 000:735 JLINK_ClrBPEx(BPHandle = 0x00000005)  returns 0x00 (0000ms, 0453ms total)
T1ECC 000:735 JLINK_ReadReg(R0)  returns 0x00000000 (0000ms, 0453ms total)
T1ECC 000:736 JLINK_WriteMem(0x20000164, 0x0400 Bytes, ...) -- Data:  26 40 70 BD 19 4A 0A 40 02 43 15 4B 1B 1F 1A 60 ... -- CPU_WriteMem(1024 bytes @ 0x20000164)  returns 0x400 (0012ms, 0465ms total)
T1ECC 000:748 JLINK_WriteReg(R0, 0x08000400)  returns 0x00 (0000ms, 0465ms total)
T1ECC 000:748 JLINK_WriteReg(R1, 0x00000400)  returns 0x00 (0000ms, 0465ms total)
T1ECC 000:748 JLINK_WriteReg(R2, 0x20000164)  returns 0x00 (0000ms, 0465ms total)
T1ECC 000:748 JLINK_WriteReg(R3, 0x00000000)  returns 0x00 (0000ms, 0465ms total)
T1ECC 000:748 JLINK_WriteReg(R4, 0x00000000)  returns 0x00 (0000ms, 0465ms total)
T1ECC 000:748 JLINK_WriteReg(R5, 0x00000000)  returns 0x00 (0000ms, 0465ms total)
T1ECC 000:748 JLINK_WriteReg(R6, 0x00000000)  returns 0x00 (0001ms, 0466ms total)
T1ECC 000:749 JLINK_WriteReg(R7, 0x00000000)  returns 0x00 (0000ms, 0466ms total)
T1ECC 000:749 JLINK_WriteReg(R8, 0x00000000)  returns 0x00 (0000ms, 0466ms total)
T1ECC 000:749 JLINK_WriteReg(R9, 0x20000160)  returns 0x00 (0000ms, 0466ms total)
T1ECC 000:749 JLINK_WriteReg(R10, 0x00000000)  returns 0x00 (0000ms, 0466ms total)
T1ECC 000:749 JLINK_WriteReg(R11, 0x00000000)  returns 0x00 (0000ms, 0466ms total)
T1ECC 000:749 JLINK_WriteReg(R12, 0x00000000)  returns 0x00 (0000ms, 0466ms total)
T1ECC 000:749 JLINK_WriteReg(R13, 0x20000800)  returns 0x00 (0000ms, 0466ms total)
T1ECC 000:749 JLINK_WriteReg(R14, 0x20000001)  returns 0x00 (0000ms, 0466ms total)
T1ECC 000:749 JLINK_WriteReg(R15, 0x200000F4)  returns 0x00 (0000ms, 0466ms total)
T1ECC 000:749 JLINK_WriteReg(XPSR, 0x01000000)  returns 0x00 (0000ms, 0466ms total)
T1ECC 000:749 JLINK_WriteReg(MSP, 0x20000800)  returns 0x00 (0000ms, 0466ms total)
T1ECC 000:749 JLINK_WriteReg(PSP, 0x20000800)  returns 0x00 (0000ms, 0466ms total)
T1ECC 000:749 JLINK_WriteReg(CFBP, 0x00000000)  returns 0x00 (0001ms, 0467ms total)
T1ECC 000:750 JLINK_SetBPEx(Addr = 0x20000000, Type = 0xFFFFFFF2)  returns 0x00000006 (0000ms, 0467ms total)
T1ECC 000:750 JLINK_Go() (0002ms, 0469ms total)
T1ECC 000:752 JLINK_IsHalted()  returns FALSE (0001ms, 0470ms total)
T1ECC 000:803 JLINK_IsHalted() -- CPU_ReadMem(2 bytes @ 0x20000000)  returns TRUE (0005ms, 0474ms total)
T1ECC 000:808 JLINK_ReadReg(R15)  returns 0x20000000 (0001ms, 0470ms total)
T1ECC 000:809 JLINK_ClrBPEx(BPHandle = 0x00000006)  returns 0x00 (0000ms, 0470ms total)
T1ECC 000:809 JLINK_ReadReg(R0)  returns 0x00000000 (0000ms, 0470ms total)
T1ECC 000:809 JLINK_WriteMem(0x20000164, 0x0400 Bytes, ...) -- Data:  35 4E F1 69 01 E0 34 4E 71 68 C0 F3 03 45 83 B2 ... -- CPU_WriteMem(1024 bytes @ 0x20000164)  returns 0x400 (0012ms, 0482ms total)
T1ECC 000:821 JLINK_WriteReg(R0, 0x08000800)  returns 0x00 (0000ms, 0482ms total)
T1ECC 000:821 JLINK_WriteReg(R1, 0x00000400)  returns 0x00 (0000ms, 0482ms total)
T1ECC 000:821 JLINK_WriteReg(R2, 0x20000164)  returns 0x00 (0000ms, 0482ms total)
T1ECC 000:821 JLINK_WriteReg(R3, 0x00000000)  returns 0x00 (0000ms, 0482ms total)
T1ECC 000:821 JLINK_WriteReg(R4, 0x00000000)  returns 0x00 (0000ms, 0482ms total)
T1ECC 000:821 JLINK_WriteReg(R5, 0x00000000)  returns 0x00 (0000ms, 0482ms total)
T1ECC 000:821 JLINK_WriteReg(R6, 0x00000000)  returns 0x00 (0000ms, 0482ms total)
T1ECC 000:821 JLINK_WriteReg(R7, 0x00000000)  returns 0x00 (0002ms, 0484ms total)
T1ECC 000:823 JLINK_WriteReg(R8, 0x00000000)  returns 0x00 (0000ms, 0484ms total)
T1ECC 000:823 JLINK_WriteReg(R9, 0x20000160)  returns 0x00 (0000ms, 0484ms total)
T1ECC 000:823 JLINK_WriteReg(R10, 0x00000000)  returns 0x00 (0000ms, 0484ms total)
T1ECC 000:823 JLINK_WriteReg(R11, 0x00000000)  returns 0x00 (0000ms, 0484ms total)
T1ECC 000:823 JLINK_WriteReg(R12, 0x00000000)  returns 0x00 (0000ms, 0484ms total)
T1ECC 000:823 JLINK_WriteReg(R13, 0x20000800)  returns 0x00 (0000ms, 0484ms total)
T1ECC 000:823 JLINK_WriteReg(R14, 0x20000001)  returns 0x00 (0000ms, 0484ms total)
T1ECC 000:823 JLINK_WriteReg(R15, 0x200000F4)  returns 0x00 (0000ms, 0484ms total)
T1ECC 000:823 JLINK_WriteReg(XPSR, 0x01000000)  returns 0x00 (0000ms, 0484ms total)
T1ECC 000:824 JLINK_WriteReg(MSP, 0x20000800)  returns 0x00 (0000ms, 0484ms total)
T1ECC 000:824 JLINK_WriteReg(PSP, 0x20000800)  returns 0x00 (0000ms, 0484ms total)
T1ECC 000:824 JLINK_WriteReg(CFBP, 0x00000000)  returns 0x00 (0000ms, 0484ms total)
T1ECC 000:824 JLINK_SetBPEx(Addr = 0x20000000, Type = 0xFFFFFFF2)  returns 0x00000007 (0000ms, 0484ms total)
T1ECC 000:824 JLINK_Go() (0002ms, 0486ms total)
T1ECC 000:826 JLINK_IsHalted()  returns FALSE (0002ms, 0488ms total)
T1ECC 000:878 JLINK_IsHalted() -- CPU_ReadMem(2 bytes @ 0x20000000)  returns TRUE (0005ms, 0491ms total)
T1ECC 000:883 JLINK_ReadReg(R15)  returns 0x20000000 (0000ms, 0486ms total)
T1ECC 000:883 JLINK_ClrBPEx(BPHandle = 0x00000007)  returns 0x00 (0000ms, 0486ms total)
T1ECC 000:883 JLINK_ReadReg(R0)  returns 0x00000000 (0000ms, 0486ms total)
T1ECC 000:884 JLINK_WriteMem(0x20000164, 0x0400 Bytes, ...) -- Data:  14 4A 12 69 02 43 13 4B 1A 61 04 E0 11 4A 12 69 ... -- CPU_WriteMem(1024 bytes @ 0x20000164)  returns 0x400 (0012ms, 0498ms total)
T1ECC 000:896 JLINK_WriteReg(R0, 0x08000C00)  returns 0x00 (0000ms, 0498ms total)
T1ECC 000:896 JLINK_WriteReg(R1, 0x00000400)  returns 0x00 (0000ms, 0498ms total)
T1ECC 000:896 JLINK_WriteReg(R2, 0x20000164)  returns 0x00 (0000ms, 0498ms total)
T1ECC 000:896 JLINK_WriteReg(R3, 0x00000000)  returns 0x00 (0000ms, 0498ms total)
T1ECC 000:896 JLINK_WriteReg(R4, 0x00000000)  returns 0x00 (0000ms, 0498ms total)
T1ECC 000:896 JLINK_WriteReg(R5, 0x00000000)  returns 0x00 (0000ms, 0498ms total)
T1ECC 000:896 JLINK_WriteReg(R6, 0x00000000)  returns 0x00 (0000ms, 0498ms total)
T1ECC 000:896 JLINK_WriteReg(R7, 0x00000000)  returns 0x00 (0000ms, 0498ms total)
T1ECC 000:896 JLINK_WriteReg(R8, 0x00000000)  returns 0x00 (0000ms, 0498ms total)
T1ECC 000:896 JLINK_WriteReg(R9, 0x20000160)  returns 0x00 (0001ms, 0499ms total)
T1ECC 000:897 JLINK_WriteReg(R10, 0x00000000)  returns 0x00 (0000ms, 0499ms total)
T1ECC 000:897 JLINK_WriteReg(R11, 0x00000000)  returns 0x00 (0000ms, 0499ms total)
T1ECC 000:897 JLINK_WriteReg(R12, 0x00000000)  returns 0x00 (0000ms, 0499ms total)
T1ECC 000:897 JLINK_WriteReg(R13, 0x20000800)  returns 0x00 (0000ms, 0499ms total)
T1ECC 000:897 JLINK_WriteReg(R14, 0x20000001)  returns 0x00 (0000ms, 0499ms total)
T1ECC 000:897 JLINK_WriteReg(R15, 0x200000F4)  returns 0x00 (0000ms, 0499ms total)
T1ECC 000:897 JLINK_WriteReg(XPSR, 0x01000000)  returns 0x00 (0000ms, 0499ms total)
T1ECC 000:897 JLINK_WriteReg(MSP, 0x20000800)  returns 0x00 (0000ms, 0499ms total)
T1ECC 000:897 JLINK_WriteReg(PSP, 0x20000800)  returns 0x00 (0000ms, 0499ms total)
T1ECC 000:897 JLINK_WriteReg(CFBP, 0x00000000)  returns 0x00 (0000ms, 0499ms total)
T1ECC 000:897 JLINK_SetBPEx(Addr = 0x20000000, Type = 0xFFFFFFF2)  returns 0x00000008 (0000ms, 0499ms total)
T1ECC 000:897 JLINK_Go() (0003ms, 0502ms total)
T1ECC 000:900 JLINK_IsHalted()  returns FALSE (0001ms, 0503ms total)
T1ECC 000:952 JLINK_IsHalted() -- CPU_ReadMem(2 bytes @ 0x20000000)  returns TRUE (0005ms, 0507ms total)
T1ECC 000:957 JLINK_ReadReg(R15)  returns 0x20000000 (0000ms, 0502ms total)
T1ECC 000:957 JLINK_ClrBPEx(BPHandle = 0x00000008)  returns 0x00 (0000ms, 0502ms total)
T1ECC 000:957 JLINK_ReadReg(R0)  returns 0x00000000 (0000ms, 0502ms total)
T1ECC 000:958 JLINK_WriteMem(0x20000164, 0x0400 Bytes, ...) -- Data:  2A 43 1F 4D A8 42 02 D0 23 4D A8 42 1D D1 4F F2 ... -- CPU_WriteMem(1024 bytes @ 0x20000164)  returns 0x400 (0011ms, 0513ms total)
T1ECC 000:969 JLINK_WriteReg(R0, 0x08001000)  returns 0x00 (0000ms, 0513ms total)
T1ECC 000:969 JLINK_WriteReg(R1, 0x00000400)  returns 0x00 (0000ms, 0513ms total)
T1ECC 000:969 JLINK_WriteReg(R2, 0x20000164)  returns 0x00 (0000ms, 0513ms total)
T1ECC 000:969 JLINK_WriteReg(R3, 0x00000000)  returns 0x00 (0000ms, 0513ms total)
T1ECC 000:970 JLINK_WriteReg(R4, 0x00000000)  returns 0x00 (0000ms, 0514ms total)
T1ECC 000:970 JLINK_WriteReg(R5, 0x00000000)  returns 0x00 (0000ms, 0514ms total)
T1ECC 000:970 JLINK_WriteReg(R6, 0x00000000)  returns 0x00 (0000ms, 0514ms total)
T1ECC 000:970 JLINK_WriteReg(R7, 0x00000000)  returns 0x00 (0000ms, 0514ms total)
T1ECC 000:970 JLINK_WriteReg(R8, 0x00000000)  returns 0x00 (0000ms, 0514ms total)
T1ECC 000:970 JLINK_WriteReg(R9, 0x20000160)  returns 0x00 (0000ms, 0514ms total)
T1ECC 000:970 JLINK_WriteReg(R10, 0x00000000)  returns 0x00 (0000ms, 0514ms total)
T1ECC 000:970 JLINK_WriteReg(R11, 0x00000000)  returns 0x00 (0000ms, 0514ms total)
T1ECC 000:970 JLINK_WriteReg(R12, 0x00000000)  returns 0x00 (0000ms, 0514ms total)
T1ECC 000:970 JLINK_WriteReg(R13, 0x20000800)  returns 0x00 (0000ms, 0514ms total)
T1ECC 000:970 JLINK_WriteReg(R14, 0x20000001)  returns 0x00 (0000ms, 0514ms total)
T1ECC 000:970 JLINK_WriteReg(R15, 0x200000F4)  returns 0x00 (0000ms, 0514ms total)
T1ECC 000:970 JLINK_WriteReg(XPSR, 0x01000000)  returns 0x00 (0000ms, 0514ms total)
T1ECC 000:970 JLINK_WriteReg(MSP, 0x20000800)  returns 0x00 (0000ms, 0514ms total)
T1ECC 000:970 JLINK_WriteReg(PSP, 0x20000800)  returns 0x00 (0000ms, 0514ms total)
T1ECC 000:970 JLINK_WriteReg(CFBP, 0x00000000)  returns 0x00 (0000ms, 0514ms total)
T1ECC 000:970 JLINK_SetBPEx(Addr = 0x20000000, Type = 0xFFFFFFF2)  returns 0x00000009 (0000ms, 0514ms total)
T1ECC 000:970 JLINK_Go() (0003ms, 0517ms total)
T1ECC 000:973 JLINK_IsHalted()  returns FALSE (0001ms, 0518ms total)
T1ECC 001:024 JLINK_IsHalted() -- CPU_ReadMem(2 bytes @ 0x20000000)  returns TRUE (0005ms, 0522ms total)
T1ECC 001:029 JLINK_ReadReg(R15)  returns 0x20000000 (0000ms, 0517ms total)
T1ECC 001:029 JLINK_ClrBPEx(BPHandle = 0x00000009)  returns 0x00 (0000ms, 0517ms total)
T1ECC 001:029 JLINK_ReadReg(R0)  returns 0x00000000 (0000ms, 0517ms total)
T1ECC 001:030 JLINK_WriteMem(0x20000164, 0x0400 Bytes, ...) -- Data:  02 27 00 E0 01 27 20 88 A0 B9 23 89 A2 88 61 88 ... -- CPU_WriteMem(1024 bytes @ 0x20000164)  returns 0x400 (0011ms, 0528ms total)
T1ECC 001:041 JLINK_WriteReg(R0, 0x08001400)  returns 0x00 (0000ms, 0528ms total)
T1ECC 001:041 JLINK_WriteReg(R1, 0x00000400)  returns 0x00 (0000ms, 0528ms total)
T1ECC 001:041 JLINK_WriteReg(R2, 0x20000164)  returns 0x00 (0001ms, 0529ms total)
T1ECC 001:042 JLINK_WriteReg(R3, 0x00000000)  returns 0x00 (0000ms, 0529ms total)
T1ECC 001:042 JLINK_WriteReg(R4, 0x00000000)  returns 0x00 (0000ms, 0529ms total)
T1ECC 001:042 JLINK_WriteReg(R5, 0x00000000)  returns 0x00 (0000ms, 0529ms total)
T1ECC 001:042 JLINK_WriteReg(R6, 0x00000000)  returns 0x00 (0000ms, 0529ms total)
T1ECC 001:042 JLINK_WriteReg(R7, 0x00000000)  returns 0x00 (0000ms, 0529ms total)
T1ECC 001:042 JLINK_WriteReg(R8, 0x00000000)  returns 0x00 (0000ms, 0529ms total)
T1ECC 001:042 JLINK_WriteReg(R9, 0x20000160)  returns 0x00 (0000ms, 0529ms total)
T1ECC 001:042 JLINK_WriteReg(R10, 0x00000000)  returns 0x00 (0000ms, 0529ms total)
T1ECC 001:042 JLINK_WriteReg(R11, 0x00000000)  returns 0x00 (0000ms, 0529ms total)
T1ECC 001:042 JLINK_WriteReg(R12, 0x00000000)  returns 0x00 (0000ms, 0529ms total)
T1ECC 001:042 JLINK_WriteReg(R13, 0x20000800)  returns 0x00 (0000ms, 0529ms total)
T1ECC 001:042 JLINK_WriteReg(R14, 0x20000001)  returns 0x00 (0001ms, 0530ms total)
T1ECC 001:043 JLINK_WriteReg(R15, 0x200000F4)  returns 0x00 (0000ms, 0530ms total)
T1ECC 001:043 JLINK_WriteReg(XPSR, 0x01000000)  returns 0x00 (0000ms, 0530ms total)
T1ECC 001:043 JLINK_WriteReg(MSP, 0x20000800)  returns 0x00 (0000ms, 0530ms total)
T1ECC 001:043 JLINK_WriteReg(PSP, 0x20000800)  returns 0x00 (0000ms, 0530ms total)
T1ECC 001:043 JLINK_WriteReg(CFBP, 0x00000000)  returns 0x00 (0000ms, 0530ms total)
T1ECC 001:043 JLINK_SetBPEx(Addr = 0x20000000, Type = 0xFFFFFFF2)  returns 0x0000000A (0000ms, 0530ms total)
T1ECC 001:043 JLINK_Go() (0002ms, 0532ms total)
T1ECC 001:046 JLINK_IsHalted()  returns FALSE (0000ms, 0532ms total)
T1ECC 001:096 JLINK_IsHalted() -- CPU_ReadMem(2 bytes @ 0x20000000)  returns TRUE (0006ms, 0538ms total)
T1ECC 001:102 JLINK_ReadReg(R15)  returns 0x20000000 (0000ms, 0532ms total)
T1ECC 001:102 JLINK_ClrBPEx(BPHandle = 0x0000000A)  returns 0x00 (0000ms, 0532ms total)
T1ECC 001:102 JLINK_ReadReg(R0)  returns 0x00000000 (0000ms, 0532ms total)
T1ECC 001:103 JLINK_WriteMem(0x20000164, 0x0400 Bytes, ...) -- Data:  70 47 0A 46 00 21 01 8B C1 F3 0E 01 4F F6 FF 73 ... -- CPU_WriteMem(1024 bytes @ 0x20000164)  returns 0x400 (0012ms, 0544ms total)
T1ECC 001:115 JLINK_WriteReg(R0, 0x08001800)  returns 0x00 (0000ms, 0544ms total)
T1ECC 001:115 JLINK_WriteReg(R1, 0x00000400)  returns 0x00 (0000ms, 0544ms total)
T1ECC 001:115 JLINK_WriteReg(R2, 0x20000164)  returns 0x00 (0000ms, 0544ms total)
T1ECC 001:115 JLINK_WriteReg(R3, 0x00000000)  returns 0x00 (0000ms, 0544ms total)
T1ECC 001:115 JLINK_WriteReg(R4, 0x00000000)  returns 0x00 (0000ms, 0544ms total)
T1ECC 001:115 JLINK_WriteReg(R5, 0x00000000)  returns 0x00 (0000ms, 0544ms total)
T1ECC 001:115 JLINK_WriteReg(R6, 0x00000000)  returns 0x00 (0001ms, 0545ms total)
T1ECC 001:116 JLINK_WriteReg(R7, 0x00000000)  returns 0x00 (0000ms, 0545ms total)
T1ECC 001:116 JLINK_WriteReg(R8, 0x00000000)  returns 0x00 (0000ms, 0545ms total)
T1ECC 001:116 JLINK_WriteReg(R9, 0x20000160)  returns 0x00 (0000ms, 0545ms total)
T1ECC 001:116 JLINK_WriteReg(R10, 0x00000000)  returns 0x00 (0000ms, 0545ms total)
T1ECC 001:116 JLINK_WriteReg(R11, 0x00000000)  returns 0x00 (0000ms, 0545ms total)
T1ECC 001:116 JLINK_WriteReg(R12, 0x00000000)  returns 0x00 (0000ms, 0545ms total)
T1ECC 001:116 JLINK_WriteReg(R13, 0x20000800)  returns 0x00 (0000ms, 0545ms total)
T1ECC 001:116 JLINK_WriteReg(R14, 0x20000001)  returns 0x00 (0000ms, 0545ms total)
T1ECC 001:116 JLINK_WriteReg(R15, 0x200000F4)  returns 0x00 (0001ms, 0546ms total)
T1ECC 001:117 JLINK_WriteReg(XPSR, 0x01000000)  returns 0x00 (0000ms, 0546ms total)
T1ECC 001:117 JLINK_WriteReg(MSP, 0x20000800)  returns 0x00 (0000ms, 0546ms total)
T1ECC 001:117 JLINK_WriteReg(PSP, 0x20000800)  returns 0x00 (0000ms, 0546ms total)
T1ECC 001:117 JLINK_WriteReg(CFBP, 0x00000000)  returns 0x00 (0000ms, 0546ms total)
T1ECC 001:117 JLINK_SetBPEx(Addr = 0x20000000, Type = 0xFFFFFFF2)  returns 0x0000000B (0000ms, 0546ms total)
T1ECC 001:117 JLINK_Go() (0003ms, 0549ms total)
T1ECC 001:120 JLINK_IsHalted()  returns FALSE (0002ms, 0551ms total)
T1ECC 001:172 JLINK_IsHalted() -- CPU_ReadMem(2 bytes @ 0x20000000)  returns TRUE (0005ms, 0554ms total)
T1ECC 001:178 JLINK_ReadReg(R15)  returns 0x20000000 (0000ms, 0549ms total)
T1ECC 001:178 JLINK_ClrBPEx(BPHandle = 0x0000000B)  returns 0x00 (0000ms, 0549ms total)
T1ECC 001:178 JLINK_ReadReg(R0)  returns 0x00000000 (0000ms, 0549ms total)
T1ECC 001:179 JLINK_WriteMem(0x20000164, 0x0400 Bytes, ...) -- Data:  01 81 0C 21 41 81 00 21 81 81 70 47 10 B5 02 46 ... -- CPU_WriteMem(1024 bytes @ 0x20000164)  returns 0x400 (0012ms, 0561ms total)
T1ECC 001:191 JLINK_WriteReg(R0, 0x08001C00)  returns 0x00 (0000ms, 0561ms total)
T1ECC 001:191 JLINK_WriteReg(R1, 0x00000400)  returns 0x00 (0000ms, 0561ms total)
T1ECC 001:191 JLINK_WriteReg(R2, 0x20000164)  returns 0x00 (0000ms, 0561ms total)
T1ECC 001:191 JLINK_WriteReg(R3, 0x00000000)  returns 0x00 (0000ms, 0561ms total)
T1ECC 001:191 JLINK_WriteReg(R4, 0x00000000)  returns 0x00 (0000ms, 0561ms total)
T1ECC 001:191 JLINK_WriteReg(R5, 0x00000000)  returns 0x00 (0000ms, 0561ms total)
T1ECC 001:191 JLINK_WriteReg(R6, 0x00000000)  returns 0x00 (0000ms, 0561ms total)
T1ECC 001:191 JLINK_WriteReg(R7, 0x00000000)  returns 0x00 (0000ms, 0561ms total)
T1ECC 001:191 JLINK_WriteReg(R8, 0x00000000)  returns 0x00 (0000ms, 0561ms total)
T1ECC 001:191 JLINK_WriteReg(R9, 0x20000160)  returns 0x00 (0000ms, 0561ms total)
T1ECC 001:191 JLINK_WriteReg(R10, 0x00000000)  returns 0x00 (0000ms, 0561ms total)
T1ECC 001:191 JLINK_WriteReg(R11, 0x00000000)  returns 0x00 (0000ms, 0561ms total)
T1ECC 001:191 JLINK_WriteReg(R12, 0x00000000)  returns 0x00 (0000ms, 0561ms total)
T1ECC 001:191 JLINK_WriteReg(R13, 0x20000800)  returns 0x00 (0000ms, 0561ms total)
T1ECC 001:191 JLINK_WriteReg(R14, 0x20000001)  returns 0x00 (0000ms, 0561ms total)
T1ECC 001:192 JLINK_WriteReg(R15, 0x200000F4)  returns 0x00 (0000ms, 0562ms total)
T1ECC 001:192 JLINK_WriteReg(XPSR, 0x01000000)  returns 0x00 (0000ms, 0562ms total)
T1ECC 001:192 JLINK_WriteReg(MSP, 0x20000800)  returns 0x00 (0000ms, 0562ms total)
T1ECC 001:192 JLINK_WriteReg(PSP, 0x20000800)  returns 0x00 (0000ms, 0562ms total)
T1ECC 001:192 JLINK_WriteReg(CFBP, 0x00000000)  returns 0x00 (0000ms, 0562ms total)
T1ECC 001:192 JLINK_SetBPEx(Addr = 0x20000000, Type = 0xFFFFFFF2)  returns 0x0000000C (0000ms, 0562ms total)
T1ECC 001:192 JLINK_Go() (0002ms, 0564ms total)
T1ECC 001:194 JLINK_IsHalted()  returns FALSE (0002ms, 0566ms total)
T1ECC 001:246 JLINK_IsHalted() -- CPU_ReadMem(2 bytes @ 0x20000000)  returns TRUE (0009ms, 0573ms total)
T1ECC 001:255 JLINK_ReadReg(R15)  returns 0x20000000 (0001ms, 0565ms total)
T1ECC 001:256 JLINK_ClrBPEx(BPHandle = 0x0000000C)  returns 0x00 (0000ms, 0565ms total)
T1ECC 001:256 JLINK_ReadReg(R0)  returns 0x00000000 (0000ms, 0565ms total)
T1ECC 001:257 JLINK_WriteMem(0x20000164, 0x0400 Bytes, ...) -- Data:  09 7E 08 44 76 49 09 7F 08 44 C0 B2 74 49 89 6C ... -- CPU_WriteMem(1024 bytes @ 0x20000164)  returns 0x400 (0012ms, 0577ms total)
T1ECC 001:269 JLINK_WriteReg(R0, 0x08002000)  returns 0x00 (0000ms, 0577ms total)
T1ECC 001:269 JLINK_WriteReg(R1, 0x00000400)  returns 0x00 (0000ms, 0577ms total)
T1ECC 001:269 JLINK_WriteReg(R2, 0x20000164)  returns 0x00 (0000ms, 0577ms total)
T1ECC 001:269 JLINK_WriteReg(R3, 0x00000000)  returns 0x00 (0000ms, 0577ms total)
T1ECC 001:269 JLINK_WriteReg(R4, 0x00000000)  returns 0x00 (0000ms, 0577ms total)
T1ECC 001:269 JLINK_WriteReg(R5, 0x00000000)  returns 0x00 (0000ms, 0577ms total)
T1ECC 001:269 JLINK_WriteReg(R6, 0x00000000)  returns 0x00 (0000ms, 0577ms total)
T1ECC 001:269 JLINK_WriteReg(R7, 0x00000000)  returns 0x00 (0001ms, 0578ms total)
T1ECC 001:270 JLINK_WriteReg(R8, 0x00000000)  returns 0x00 (0000ms, 0578ms total)
T1ECC 001:270 JLINK_WriteReg(R9, 0x20000160)  returns 0x00 (0000ms, 0578ms total)
T1ECC 001:270 JLINK_WriteReg(R10, 0x00000000)  returns 0x00 (0000ms, 0578ms total)
T1ECC 001:270 JLINK_WriteReg(R11, 0x00000000)  returns 0x00 (0000ms, 0578ms total)
T1ECC 001:270 JLINK_WriteReg(R12, 0x00000000)  returns 0x00 (0000ms, 0578ms total)
T1ECC 001:270 JLINK_WriteReg(R13, 0x20000800)  returns 0x00 (0000ms, 0578ms total)
T1ECC 001:270 JLINK_WriteReg(R14, 0x20000001)  returns 0x00 (0000ms, 0578ms total)
T1ECC 001:270 JLINK_WriteReg(R15, 0x200000F4)  returns 0x00 (0000ms, 0578ms total)
T1ECC 001:270 JLINK_WriteReg(XPSR, 0x01000000)  returns 0x00 (0000ms, 0578ms total)
T1ECC 001:270 JLINK_WriteReg(MSP, 0x20000800)  returns 0x00 (0000ms, 0578ms total)
T1ECC 001:270 JLINK_WriteReg(PSP, 0x20000800)  returns 0x00 (0000ms, 0578ms total)
T1ECC 001:270 JLINK_WriteReg(CFBP, 0x00000000)  returns 0x00 (0000ms, 0578ms total)
T1ECC 001:270 JLINK_SetBPEx(Addr = 0x20000000, Type = 0xFFFFFFF2)  returns 0x0000000D (0000ms, 0578ms total)
T1ECC 001:270 JLINK_Go() (0003ms, 0581ms total)
T1ECC 001:273 JLINK_IsHalted()  returns FALSE (0001ms, 0582ms total)
T1ECC 001:324 JLINK_IsHalted() -- CPU_ReadMem(2 bytes @ 0x20000000)  returns TRUE (0005ms, 0586ms total)
T1ECC 001:329 JLINK_ReadReg(R15)  returns 0x20000000 (0000ms, 0581ms total)
T1ECC 001:329 JLINK_ClrBPEx(BPHandle = 0x0000000D)  returns 0x00 (0000ms, 0581ms total)
T1ECC 001:329 JLINK_ReadReg(R0)  returns 0x00000000 (0000ms, 0581ms total)
T1ECC 001:330 JLINK_WriteMem(0x20000164, 0x0400 Bytes, ...) -- Data:  25 F9 4F F4 00 70 AD F8 20 00 18 20 8D F8 23 00 ... -- CPU_WriteMem(1024 bytes @ 0x20000164)  returns 0x400 (0012ms, 0593ms total)
T1ECC 001:342 JLINK_WriteReg(R0, 0x08002400)  returns 0x00 (0000ms, 0593ms total)
T1ECC 001:342 JLINK_WriteReg(R1, 0x00000400)  returns 0x00 (0000ms, 0593ms total)
T1ECC 001:342 JLINK_WriteReg(R2, 0x20000164)  returns 0x00 (0000ms, 0593ms total)
T1ECC 001:342 JLINK_WriteReg(R3, 0x00000000)  returns 0x00 (0000ms, 0593ms total)
T1ECC 001:342 JLINK_WriteReg(R4, 0x00000000)  returns 0x00 (0000ms, 0593ms total)
T1ECC 001:342 JLINK_WriteReg(R5, 0x00000000)  returns 0x00 (0001ms, 0594ms total)
T1ECC 001:343 JLINK_WriteReg(R6, 0x00000000)  returns 0x00 (0000ms, 0594ms total)
T1ECC 001:343 JLINK_WriteReg(R7, 0x00000000)  returns 0x00 (0000ms, 0594ms total)
T1ECC 001:343 JLINK_WriteReg(R8, 0x00000000)  returns 0x00 (0000ms, 0594ms total)
T1ECC 001:343 JLINK_WriteReg(R9, 0x20000160)  returns 0x00 (0000ms, 0594ms total)
T1ECC 001:343 JLINK_WriteReg(R10, 0x00000000)  returns 0x00 (0000ms, 0594ms total)
T1ECC 001:343 JLINK_WriteReg(R11, 0x00000000)  returns 0x00 (0000ms, 0594ms total)
T1ECC 001:343 JLINK_WriteReg(R12, 0x00000000)  returns 0x00 (0000ms, 0594ms total)
T1ECC 001:343 JLINK_WriteReg(R13, 0x20000800)  returns 0x00 (0000ms, 0594ms total)
T1ECC 001:343 JLINK_WriteReg(R14, 0x20000001)  returns 0x00 (0000ms, 0594ms total)
T1ECC 001:343 JLINK_WriteReg(R15, 0x200000F4)  returns 0x00 (0000ms, 0594ms total)
T1ECC 001:343 JLINK_WriteReg(XPSR, 0x01000000)  returns 0x00 (0000ms, 0594ms total)
T1ECC 001:343 JLINK_WriteReg(MSP, 0x20000800)  returns 0x00 (0000ms, 0594ms total)
T1ECC 001:343 JLINK_WriteReg(PSP, 0x20000800)  returns 0x00 (0000ms, 0594ms total)
T1ECC 001:343 JLINK_WriteReg(CFBP, 0x00000000)  returns 0x00 (0001ms, 0595ms total)
T1ECC 001:344 JLINK_SetBPEx(Addr = 0x20000000, Type = 0xFFFFFFF2)  returns 0x0000000E (0000ms, 0595ms total)
T1ECC 001:344 JLINK_Go() (0002ms, 0597ms total)
T1ECC 001:346 JLINK_IsHalted()  returns FALSE (0001ms, 0598ms total)
T1ECC 001:397 JLINK_IsHalted() -- CPU_ReadMem(2 bytes @ 0x20000000)  returns TRUE (0007ms, 0604ms total)
T1ECC 001:404 JLINK_ReadReg(R15)  returns 0x20000000 (0000ms, 0597ms total)
T1ECC 001:404 JLINK_ClrBPEx(BPHandle = 0x0000000E)  returns 0x00 (0000ms, 0597ms total)
T1ECC 001:404 JLINK_ReadReg(R0)  returns 0x00000000 (0000ms, 0597ms total)
T1ECC 001:404 JLINK_WriteMem(0x20000164, 0x0400 Bytes, ...) -- Data:  01 68 56 48 00 68 00 F0 57 FD 55 49 08 60 39 48 ... -- CPU_WriteMem(1024 bytes @ 0x20000164)  returns 0x400 (0013ms, 0610ms total)
T1ECC 001:417 JLINK_WriteReg(R0, 0x08002800)  returns 0x00 (0000ms, 0610ms total)
T1ECC 001:417 JLINK_WriteReg(R1, 0x00000400)  returns 0x00 (0000ms, 0610ms total)
T1ECC 001:417 JLINK_WriteReg(R2, 0x20000164)  returns 0x00 (0000ms, 0610ms total)
T1ECC 001:418 JLINK_WriteReg(R3, 0x00000000)  returns 0x00 (0000ms, 0611ms total)
T1ECC 001:418 JLINK_WriteReg(R4, 0x00000000)  returns 0x00 (0000ms, 0611ms total)
T1ECC 001:418 JLINK_WriteReg(R5, 0x00000000)  returns 0x00 (0000ms, 0611ms total)
T1ECC 001:418 JLINK_WriteReg(R6, 0x00000000)  returns 0x00 (0000ms, 0611ms total)
T1ECC 001:418 JLINK_WriteReg(R7, 0x00000000)  returns 0x00 (0000ms, 0611ms total)
T1ECC 001:418 JLINK_WriteReg(R8, 0x00000000)  returns 0x00 (0000ms, 0611ms total)
T1ECC 001:418 JLINK_WriteReg(R9, 0x20000160)  returns 0x00 (0000ms, 0611ms total)
T1ECC 001:418 JLINK_WriteReg(R10, 0x00000000)  returns 0x00 (0000ms, 0611ms total)
T1ECC 001:418 JLINK_WriteReg(R11, 0x00000000)  returns 0x00 (0000ms, 0611ms total)
T1ECC 001:418 JLINK_WriteReg(R12, 0x00000000)  returns 0x00 (0000ms, 0611ms total)
T1ECC 001:418 JLINK_WriteReg(R13, 0x20000800)  returns 0x00 (0000ms, 0611ms total)
T1ECC 001:418 JLINK_WriteReg(R14, 0x20000001)  returns 0x00 (0000ms, 0611ms total)
T1ECC 001:418 JLINK_WriteReg(R15, 0x200000F4)  returns 0x00 (0000ms, 0611ms total)
T1ECC 001:418 JLINK_WriteReg(XPSR, 0x01000000)  returns 0x00 (0000ms, 0611ms total)
T1ECC 001:418 JLINK_WriteReg(MSP, 0x20000800)  returns 0x00 (0000ms, 0611ms total)
T1ECC 001:418 JLINK_WriteReg(PSP, 0x20000800)  returns 0x00 (0000ms, 0611ms total)
T1ECC 001:418 JLINK_WriteReg(CFBP, 0x00000000)  returns 0x00 (0000ms, 0611ms total)
T1ECC 001:418 JLINK_SetBPEx(Addr = 0x20000000, Type = 0xFFFFFFF2)  returns 0x0000000F (0000ms, 0611ms total)
T1ECC 001:418 JLINK_Go() (0003ms, 0614ms total)
T1ECC 001:421 JLINK_IsHalted()  returns FALSE (0001ms, 0615ms total)
T1ECC 001:472 JLINK_IsHalted() -- CPU_ReadMem(2 bytes @ 0x20000000)  returns TRUE (0005ms, 0619ms total)
T1ECC 001:477 JLINK_ReadReg(R15)  returns 0x20000000 (0000ms, 0614ms total)
T1ECC 001:477 JLINK_ClrBPEx(BPHandle = 0x0000000F)  returns 0x00 (0000ms, 0614ms total)
T1ECC 001:477 JLINK_ReadReg(R0)  returns 0x00000000 (0000ms, 0614ms total)
T1ECC 001:478 JLINK_WriteMem(0x20000164, 0x0400 Bytes, ...) -- Data:  84 1A 71 EB 03 0C 05 D2 12 19 43 EB 0C 03 00 1B ... -- CPU_WriteMem(1024 bytes @ 0x20000164)  returns 0x400 (0011ms, 0625ms total)
T1ECC 001:489 JLINK_WriteReg(R0, 0x08002C00)  returns 0x00 (0000ms, 0625ms total)
T1ECC 001:489 JLINK_WriteReg(R1, 0x00000400)  returns 0x00 (0000ms, 0625ms total)
T1ECC 001:489 JLINK_WriteReg(R2, 0x20000164)  returns 0x00 (0000ms, 0625ms total)
T1ECC 001:489 JLINK_WriteReg(R3, 0x00000000)  returns 0x00 (0001ms, 0626ms total)
T1ECC 001:490 JLINK_WriteReg(R4, 0x00000000)  returns 0x00 (0000ms, 0626ms total)
T1ECC 001:490 JLINK_WriteReg(R5, 0x00000000)  returns 0x00 (0000ms, 0626ms total)
T1ECC 001:490 JLINK_WriteReg(R6, 0x00000000)  returns 0x00 (0000ms, 0626ms total)
T1ECC 001:490 JLINK_WriteReg(R7, 0x00000000)  returns 0x00 (0000ms, 0626ms total)
T1ECC 001:490 JLINK_WriteReg(R8, 0x00000000)  returns 0x00 (0000ms, 0626ms total)
T1ECC 001:490 JLINK_WriteReg(R9, 0x20000160)  returns 0x00 (0000ms, 0626ms total)
T1ECC 001:490 JLINK_WriteReg(R10, 0x00000000)  returns 0x00 (0000ms, 0626ms total)
T1ECC 001:490 JLINK_WriteReg(R11, 0x00000000)  returns 0x00 (0000ms, 0626ms total)
T1ECC 001:490 JLINK_WriteReg(R12, 0x00000000)  returns 0x00 (0000ms, 0626ms total)
T1ECC 001:490 JLINK_WriteReg(R13, 0x20000800)  returns 0x00 (0000ms, 0626ms total)
T1ECC 001:490 JLINK_WriteReg(R14, 0x20000001)  returns 0x00 (0000ms, 0626ms total)
T1ECC 001:490 JLINK_WriteReg(R15, 0x200000F4)  returns 0x00 (0000ms, 0626ms total)
T1ECC 001:490 JLINK_WriteReg(XPSR, 0x01000000)  returns 0x00 (0000ms, 0626ms total)
T1ECC 001:490 JLINK_WriteReg(MSP, 0x20000800)  returns 0x00 (0000ms, 0626ms total)
T1ECC 001:490 JLINK_WriteReg(PSP, 0x20000800)  returns 0x00 (0000ms, 0626ms total)
T1ECC 001:490 JLINK_WriteReg(CFBP, 0x00000000)  returns 0x00 (0000ms, 0626ms total)
T1ECC 001:490 JLINK_SetBPEx(Addr = 0x20000000, Type = 0xFFFFFFF2)  returns 0x00000010 (0001ms, 0627ms total)
T1ECC 001:491 JLINK_Go() (0002ms, 0629ms total)
T1ECC 001:493 JLINK_IsHalted()  returns FALSE (0001ms, 0630ms total)
T1ECC 001:544 JLINK_IsHalted() -- CPU_ReadMem(2 bytes @ 0x20000000)  returns TRUE (0005ms, 0634ms total)
T1ECC 001:549 JLINK_ReadReg(R15)  returns 0x20000000 (0000ms, 0629ms total)
T1ECC 001:549 JLINK_ClrBPEx(BPHandle = 0x00000010)  returns 0x00 (0000ms, 0629ms total)
T1ECC 001:549 JLINK_ReadReg(R0)  returns 0x00000000 (0000ms, 0629ms total)
T1ECC 001:550 JLINK_WriteMem(0x20000164, 0x0400 Bytes, ...) -- Data:  51 EB 01 04 18 BF D4 F5 00 14 84 BF 00 20 01 F0 ... -- CPU_WriteMem(1024 bytes @ 0x20000164)  returns 0x400 (0011ms, 0640ms total)
T1ECC 001:561 JLINK_WriteReg(R0, 0x08003000)  returns 0x00 (0000ms, 0640ms total)
T1ECC 001:561 JLINK_WriteReg(R1, 0x00000400)  returns 0x00 (0000ms, 0640ms total)
T1ECC 001:562 JLINK_WriteReg(R2, 0x20000164)  returns 0x00 (0000ms, 0640ms total)
T1ECC 001:562 JLINK_WriteReg(R3, 0x00000000)  returns 0x00 (0000ms, 0640ms total)
T1ECC 001:562 JLINK_WriteReg(R4, 0x00000000)  returns 0x00 (0000ms, 0640ms total)
T1ECC 001:562 JLINK_WriteReg(R5, 0x00000000)  returns 0x00 (0000ms, 0640ms total)
T1ECC 001:562 JLINK_WriteReg(R6, 0x00000000)  returns 0x00 (0000ms, 0640ms total)
T1ECC 001:562 JLINK_WriteReg(R7, 0x00000000)  returns 0x00 (0000ms, 0640ms total)
T1ECC 001:562 JLINK_WriteReg(R8, 0x00000000)  returns 0x00 (0000ms, 0640ms total)
T1ECC 001:562 JLINK_WriteReg(R9, 0x20000160)  returns 0x00 (0000ms, 0640ms total)
T1ECC 001:562 JLINK_WriteReg(R10, 0x00000000)  returns 0x00 (0000ms, 0640ms total)
T1ECC 001:562 JLINK_WriteReg(R11, 0x00000000)  returns 0x00 (0000ms, 0640ms total)
T1ECC 001:562 JLINK_WriteReg(R12, 0x00000000)  returns 0x00 (0000ms, 0640ms total)
T1ECC 001:562 JLINK_WriteReg(R13, 0x20000800)  returns 0x00 (0000ms, 0640ms total)
T1ECC 001:562 JLINK_WriteReg(R14, 0x20000001)  returns 0x00 (0000ms, 0640ms total)
T1ECC 001:562 JLINK_WriteReg(R15, 0x200000F4)  returns 0x00 (0000ms, 0640ms total)
T1ECC 001:562 JLINK_WriteReg(XPSR, 0x01000000)  returns 0x00 (0000ms, 0640ms total)
T1ECC 001:562 JLINK_WriteReg(MSP, 0x20000800)  returns 0x00 (0000ms, 0640ms total)
T1ECC 001:562 JLINK_WriteReg(PSP, 0x20000800)  returns 0x00 (0001ms, 0641ms total)
T1ECC 001:563 JLINK_WriteReg(CFBP, 0x00000000)  returns 0x00 (0000ms, 0641ms total)
T1ECC 001:564 JLINK_SetBPEx(Addr = 0x20000000, Type = 0xFFFFFFF2)  returns 0x00000011 (0000ms, 0641ms total)
T1ECC 001:564 JLINK_Go() (0002ms, 0643ms total)
T1ECC 001:566 JLINK_IsHalted()  returns FALSE (0001ms, 0644ms total)
T1ECC 001:617 JLINK_IsHalted() -- CPU_ReadMem(2 bytes @ 0x20000000)  returns TRUE (0006ms, 0649ms total)
T1ECC 001:623 JLINK_ReadReg(R15)  returns 0x20000000 (0000ms, 0643ms total)
T1ECC 001:623 JLINK_ClrBPEx(BPHandle = 0x00000011)  returns 0x00 (0000ms, 0643ms total)
T1ECC 001:623 JLINK_ReadReg(R0)  returns 0x00000000 (0000ms, 0643ms total)
T1ECC 001:624 JLINK_WriteMem(0x20000164, 0x0400 Bytes, ...) -- Data:  70 47 1C F5 00 0F 04 D5 BC F5 00 0F F7 D5 81 42 ... -- CPU_WriteMem(1024 bytes @ 0x20000164)  returns 0x400 (0012ms, 0655ms total)
T1ECC 001:636 JLINK_WriteReg(R0, 0x08003400)  returns 0x00 (0000ms, 0655ms total)
T1ECC 001:636 JLINK_WriteReg(R1, 0x000003CC)  returns 0x00 (0000ms, 0655ms total)
T1ECC 001:636 JLINK_WriteReg(R2, 0x20000164)  returns 0x00 (0000ms, 0655ms total)
T1ECC 001:636 JLINK_WriteReg(R3, 0x00000000)  returns 0x00 (0000ms, 0655ms total)
T1ECC 001:636 JLINK_WriteReg(R4, 0x00000000)  returns 0x00 (0000ms, 0655ms total)
T1ECC 001:636 JLINK_WriteReg(R5, 0x00000000)  returns 0x00 (0000ms, 0655ms total)
T1ECC 001:636 JLINK_WriteReg(R6, 0x00000000)  returns 0x00 (0000ms, 0655ms total)
T1ECC 001:636 JLINK_WriteReg(R7, 0x00000000)  returns 0x00 (0000ms, 0655ms total)
T1ECC 001:636 JLINK_WriteReg(R8, 0x00000000)  returns 0x00 (0000ms, 0655ms total)
T1ECC 001:636 JLINK_WriteReg(R9, 0x20000160)  returns 0x00 (0000ms, 0655ms total)
T1ECC 001:636 JLINK_WriteReg(R10, 0x00000000)  returns 0x00 (0000ms, 0655ms total)
T1ECC 001:636 JLINK_WriteReg(R11, 0x00000000)  returns 0x00 (0000ms, 0655ms total)
T1ECC 001:636 JLINK_WriteReg(R12, 0x00000000)  returns 0x00 (0000ms, 0655ms total)
T1ECC 001:637 JLINK_WriteReg(R13, 0x20000800)  returns 0x00 (0000ms, 0656ms total)
T1ECC 001:637 JLINK_WriteReg(R14, 0x20000001)  returns 0x00 (0000ms, 0656ms total)
T1ECC 001:637 JLINK_WriteReg(R15, 0x200000F4)  returns 0x00 (0000ms, 0656ms total)
T1ECC 001:637 JLINK_WriteReg(XPSR, 0x01000000)  returns 0x00 (0000ms, 0656ms total)
T1ECC 001:637 JLINK_WriteReg(MSP, 0x20000800)  returns 0x00 (0000ms, 0656ms total)
